Sample in Buffer,Sample in Window,TRIGGER,base_zynq_i/TARGET_C_TopLevel_Sy_0/U0/TC_RoundBuffer/WR_CS_S[5:0],base_zynq_i/TARGET_C_TopLevel_Sy_0/U0/TC_RoundBuffer/inst_DummyTriger/cnt_i[8:0],base_zynq_i/TARGET_C_TopLevel_Sy_0/U0/TC_RoundBuffer/WR_RS_S[1:0],base_zynq_i/TARGET_C_TopLevel_Sy_0/U0/TC_RoundBuffer/WDOSTORE/WdoNumber[8:0],base_zynq_i/axi_dma_0_s2mm_introut,base_zynq_i/TARGET_C_TopLevel_Sy_0/U0/TC_RoundBuffer/CtrlBus_IxSL[CPUMode],base_zynq_i/TARGET_C_TopLevel_Sy_0/U0/TC_RoundBuffer/dummytrigger_s,base_zynq_i/TARGET_C_TopLevel_Sy_0/U0/TC_RoundBuffer/circBuffer/windowStorage,base_zynq_i/TARGET_C_TopLevel_Sy_0/U0/TC_RoundBuffer/WDOSTORE/WriteEn
0,0,0,63,0,3,3,0,0,0,0,0
1,1,0,63,0,3,3,0,0,0,0,0
2,2,0,63,0,3,3,0,0,0,0,0
3,3,0,63,0,3,3,0,0,0,0,0
4,4,0,63,0,3,3,0,0,0,0,0
5,5,0,63,0,3,3,0,0,0,0,0
6,6,0,63,0,3,3,0,0,0,0,0
7,7,0,63,0,3,3,0,0,0,0,0
8,8,0,63,0,3,3,0,0,0,0,0
9,9,0,63,0,3,3,0,0,0,0,0
10,10,0,63,0,3,3,0,0,0,0,0
11,11,0,63,0,3,3,0,0,0,0,0
12,12,0,63,0,3,3,0,0,0,0,0
13,13,0,63,0,3,3,0,0,0,0,0
14,14,0,63,0,3,3,0,0,0,0,0
15,15,0,63,0,3,3,0,0,0,0,0
16,16,0,63,0,3,3,0,0,0,0,0
17,17,0,63,0,3,3,0,0,0,0,0
18,18,0,63,0,3,3,0,0,0,0,0
19,19,0,63,0,3,3,0,0,0,0,0
20,20,1,63,0,3,3,1,0,0,0,0
21,21,0,63,0,3,3,1,0,0,0,0
22,22,0,63,0,3,3,1,0,0,0,0
23,23,0,63,0,3,3,1,0,0,0,0
24,24,0,63,0,3,3,1,0,0,0,0
25,25,0,63,0,3,3,1,0,0,0,0
26,26,0,63,0,3,3,1,0,0,0,0
27,27,0,63,0,3,3,1,0,0,0,0
28,28,0,63,0,3,3,1,0,0,0,0
29,29,0,63,0,3,3,1,0,0,0,0
30,30,0,63,0,3,3,1,0,0,0,0
31,31,0,63,0,3,3,1,0,0,0,0
32,32,0,63,0,3,3,1,0,0,0,0
33,33,0,63,0,3,3,1,0,0,0,0
34,34,0,63,0,3,3,1,0,0,0,0
35,35,0,63,0,3,3,1,0,0,0,0
36,36,0,63,0,3,3,1,0,0,0,0
37,37,0,63,0,3,3,1,0,0,0,0
38,38,0,63,0,3,3,1,0,0,0,0
39,39,0,63,0,3,3,1,0,0,0,0
40,40,0,63,0,3,3,1,0,0,0,0
41,41,0,63,0,3,3,1,0,0,0,0
42,42,0,63,0,3,3,1,0,0,0,0
43,43,0,63,0,3,3,1,0,0,0,0
44,44,0,63,0,3,3,1,0,0,0,0
45,45,0,63,0,3,3,1,0,0,0,0
46,46,0,63,0,3,3,1,0,0,0,0
47,47,0,63,0,3,3,1,0,0,0,0
48,48,0,63,0,3,3,1,0,0,0,0
49,49,0,63,0,3,3,1,0,0,0,0
50,50,0,63,0,3,3,1,0,0,0,0
51,51,0,63,0,3,3,1,0,0,0,0
52,52,0,63,0,3,3,1,0,0,0,0
53,53,0,63,0,3,3,1,0,0,0,0
54,54,0,63,0,3,3,1,0,0,0,0
55,55,0,63,0,3,3,1,0,0,0,0
56,56,0,63,0,3,3,1,0,0,0,0
57,57,0,63,0,3,3,1,0,0,0,0
58,58,0,63,0,3,3,1,0,0,0,0
59,59,0,63,0,3,3,1,0,0,0,0
60,60,0,63,0,3,3,1,0,0,0,0
61,61,0,63,0,3,3,1,0,0,0,0
62,62,0,63,0,3,3,1,0,0,0,0
63,63,0,63,0,3,3,1,0,0,0,0
64,64,0,63,0,3,3,1,0,0,0,0
65,65,0,63,0,3,3,1,0,0,0,0
66,66,0,63,0,3,3,1,0,0,0,0
67,67,0,63,0,3,3,1,0,0,0,0
68,68,0,63,0,3,3,1,0,0,0,0
69,69,0,63,0,3,3,1,0,0,0,0
70,70,0,63,0,3,3,1,0,0,0,0
71,71,0,63,0,3,3,1,0,0,0,0
72,72,0,63,0,3,3,1,0,0,0,0
73,73,0,63,0,3,3,1,0,0,0,0
74,74,0,63,0,3,3,1,0,0,0,0
75,75,0,63,0,3,3,1,0,0,0,0
76,76,0,63,0,3,3,1,0,0,0,0
77,77,0,63,0,3,3,1,0,0,0,0
78,78,0,63,0,3,3,1,0,0,0,0
79,79,0,63,0,3,3,1,0,0,0,0
80,80,0,63,0,3,3,1,0,0,0,0
81,81,0,63,0,3,3,1,0,0,0,0
82,82,0,63,0,3,3,1,0,0,0,0
83,83,0,63,0,3,3,1,0,0,0,0
84,84,0,63,0,3,3,1,0,0,0,0
85,85,0,63,0,3,3,1,0,0,0,0
86,86,0,63,0,3,3,1,0,0,0,0
87,87,0,63,0,3,3,1,0,0,0,0
88,88,0,63,0,3,3,1,0,0,0,0
89,89,0,63,0,3,3,1,0,0,0,0
90,90,0,63,0,3,3,1,0,0,0,0
91,91,0,63,0,3,3,1,0,0,0,0
92,92,0,63,0,3,3,1,0,0,0,0
93,93,0,63,0,3,3,1,0,0,0,0
94,94,0,63,0,3,3,1,0,0,0,0
95,95,0,63,0,3,3,1,0,0,0,0
96,96,0,63,0,3,3,1,0,0,0,0
97,97,0,63,0,3,3,1,0,0,0,0
98,98,0,63,0,3,3,1,0,0,0,0
99,99,0,63,0,3,3,1,0,0,0,0
100,100,0,63,0,3,3,1,0,0,0,0
101,101,0,63,0,3,3,1,0,0,0,0
102,102,0,63,0,3,3,1,0,0,0,0
103,103,0,63,0,3,3,1,0,0,0,0
104,104,0,63,0,3,3,1,0,0,0,0
105,105,0,63,0,3,3,1,0,0,0,0
106,106,0,63,0,3,3,1,0,0,0,0
107,107,0,63,0,3,3,1,0,0,0,0
108,108,0,63,0,3,3,1,0,0,0,0
109,109,0,63,0,3,3,1,0,0,0,0
110,110,0,63,0,3,3,1,0,0,0,0
111,111,0,63,0,3,3,1,0,0,0,0
112,112,0,63,0,3,3,1,0,0,0,0
113,113,0,63,0,3,3,1,0,0,0,0
114,114,0,63,0,3,3,1,0,0,0,0
115,115,0,63,0,3,3,1,0,0,0,0
116,116,0,63,0,3,3,1,0,0,0,0
117,117,0,63,0,3,3,1,0,0,0,0
118,118,0,63,0,3,3,1,0,0,0,0
119,119,0,63,0,3,3,1,0,0,0,0
120,120,0,63,0,3,3,1,0,0,0,0
121,121,0,63,0,3,3,1,0,0,0,0
122,122,0,63,0,3,3,1,0,0,0,0
123,123,0,63,0,3,3,1,0,0,0,0
124,124,0,63,0,3,3,1,0,0,0,0
125,125,0,63,0,3,3,1,0,0,0,0
126,126,0,63,0,3,3,1,0,0,0,0
127,127,0,63,0,3,3,1,0,0,0,0
128,128,0,63,0,3,3,1,0,0,0,0
129,129,0,63,0,3,3,1,0,0,0,0
130,130,0,63,0,3,3,1,0,0,0,0
131,131,0,63,0,3,3,1,0,0,0,0
132,132,0,63,0,3,3,1,0,0,0,0
133,133,0,63,0,3,3,1,0,0,0,0
134,134,0,63,0,3,3,1,0,0,0,0
135,135,0,63,0,3,3,1,0,0,0,0
136,136,0,63,0,3,3,1,0,0,0,0
137,137,0,63,0,3,3,1,0,0,0,0
138,138,0,63,0,3,3,1,0,0,0,0
139,139,0,63,0,3,3,1,0,0,0,0
140,140,0,63,0,3,3,1,0,0,0,0
141,141,0,63,0,3,3,1,0,0,0,0
142,142,0,63,0,3,3,1,0,0,0,0
143,143,0,63,0,3,3,1,0,0,0,0
144,144,0,63,0,3,3,1,0,0,0,0
145,145,0,63,0,3,3,1,0,0,0,0
146,146,0,63,0,3,3,1,0,0,0,0
147,147,0,63,0,3,3,1,0,0,0,0
148,148,0,63,0,3,3,1,0,0,0,0
149,149,0,63,0,3,3,1,0,0,0,0
150,150,0,63,0,3,3,1,0,0,0,0
151,151,0,63,0,3,3,1,0,0,0,0
152,152,0,63,0,3,3,1,0,0,0,0
153,153,0,63,0,3,3,1,0,0,0,0
154,154,0,63,0,3,3,1,0,0,0,0
155,155,0,63,0,3,3,1,0,0,0,0
156,156,0,63,0,3,3,1,0,0,0,0
157,157,0,63,0,3,3,1,0,0,0,0
158,158,0,63,0,3,3,1,0,0,0,0
159,159,0,63,0,3,3,1,0,0,0,0
160,160,0,63,0,3,3,1,0,0,0,0
161,161,0,63,0,3,3,1,0,0,0,0
162,162,0,63,0,3,3,1,0,0,0,0
163,163,0,63,0,3,3,1,0,0,0,0
164,164,0,63,0,3,3,1,0,0,0,0
165,165,0,63,0,3,3,1,0,0,0,0
166,166,0,63,0,3,3,1,0,0,0,0
167,167,0,63,0,3,3,1,0,0,0,0
168,168,0,63,0,3,3,1,0,0,0,0
169,169,0,63,0,3,3,1,0,0,0,0
170,170,0,63,0,3,3,1,0,0,0,0
171,171,0,63,0,3,3,1,0,0,0,0
172,172,0,63,0,3,3,1,0,0,0,0
173,173,0,63,0,3,3,1,0,0,0,0
174,174,0,63,0,3,3,1,0,0,0,0
175,175,0,63,0,3,3,1,0,0,0,0
176,176,0,63,0,3,3,0,0,0,0,0
177,177,0,63,0,3,3,0,0,0,0,0
178,178,0,63,0,3,3,0,0,0,0,0
179,179,0,63,0,3,3,0,0,0,0,0
180,180,0,63,0,3,3,0,0,0,0,0
181,181,0,63,0,3,3,0,0,0,0,0
182,182,0,63,0,3,3,0,0,0,0,0
183,183,0,63,0,3,3,0,0,0,0,0
184,184,0,63,0,3,3,0,0,0,0,0
185,185,0,63,0,3,3,0,0,0,0,0
186,186,0,63,0,3,3,0,0,0,0,0
187,187,0,63,0,3,3,0,0,0,0,0
188,188,0,63,0,3,3,0,0,0,0,0
189,189,0,63,0,3,3,0,0,0,0,0
190,190,0,63,0,3,3,0,0,0,0,0
191,191,0,63,0,3,3,0,0,0,0,0
192,192,0,63,0,3,3,0,0,0,0,0
193,193,0,63,0,3,3,0,0,0,0,0
194,194,0,63,0,3,3,0,0,0,0,0
195,195,0,63,0,3,3,0,0,0,0,0
196,196,0,63,0,3,3,0,0,0,0,0
197,197,0,63,0,3,3,0,0,0,0,0
198,198,0,63,0,3,3,0,0,0,0,0
199,199,0,63,0,3,3,0,0,0,0,0
200,200,0,63,0,3,3,0,0,0,0,0
201,201,0,63,0,3,3,0,0,0,0,0
202,202,0,63,0,3,3,0,0,0,0,0
203,203,0,63,0,3,3,0,0,0,0,0
204,204,0,63,0,3,3,0,0,0,0,0
205,205,0,63,0,3,3,0,0,0,0,0
206,206,0,63,0,3,3,0,0,0,0,0
207,207,0,63,0,3,3,0,0,0,0,0
208,208,0,63,0,3,3,0,0,0,0,0
209,209,0,63,0,3,3,0,0,0,0,0
210,210,0,63,0,3,3,0,0,0,0,0
211,211,0,63,0,3,3,0,0,0,0,0
212,212,0,63,0,3,3,0,0,0,0,0
213,213,0,63,0,3,3,0,0,0,0,0
214,214,0,63,0,3,3,0,0,0,0,0
215,215,0,63,0,3,3,0,0,0,0,0
216,216,0,63,0,3,3,0,0,0,0,0
217,217,0,63,0,3,3,0,0,0,0,0
218,218,0,63,0,3,3,0,0,0,0,0
219,219,0,63,0,3,3,0,0,0,0,0
220,220,0,63,0,3,3,0,0,0,0,0
221,221,0,63,0,3,3,0,0,0,0,0
222,222,0,63,0,3,3,0,0,0,0,0
223,223,0,63,0,3,3,0,0,0,0,0
224,224,0,63,0,3,3,0,0,0,0,0
225,225,0,63,0,3,3,0,0,0,0,0
226,226,0,63,0,3,3,0,0,0,0,0
227,227,0,63,0,3,3,0,0,0,0,0
228,228,0,63,0,3,3,0,0,0,0,0
229,229,0,63,0,3,3,0,0,0,0,0
230,230,0,63,0,3,3,0,0,0,0,0
231,231,0,63,0,3,3,0,0,0,0,0
232,232,0,63,0,3,3,0,0,0,0,0
233,233,0,63,0,3,3,0,0,0,0,0
234,234,0,63,0,3,3,0,0,0,0,0
235,235,0,63,0,3,3,0,0,0,0,0
236,236,0,63,0,3,3,0,0,0,0,0
237,237,0,63,0,3,3,0,0,0,0,0
238,238,0,63,0,3,3,0,0,0,0,0
239,239,0,63,0,3,3,0,0,0,0,0
240,240,0,63,0,3,3,0,0,0,0,0
241,241,0,63,0,3,3,0,0,0,0,0
242,242,0,63,0,3,3,0,0,0,0,0
243,243,0,63,0,3,3,0,0,0,0,0
244,244,0,63,0,3,3,0,0,0,0,0
245,245,0,63,0,3,3,0,0,0,0,0
246,246,0,63,0,3,3,0,0,0,0,0
247,247,0,63,0,3,3,0,0,0,0,0
248,248,0,63,0,3,3,0,0,0,0,0
249,249,0,63,0,3,3,0,0,0,0,0
250,250,0,63,0,3,3,0,0,0,0,0
251,251,0,63,0,3,3,0,0,0,0,0
252,252,0,63,0,3,3,0,0,0,0,0
253,253,0,63,0,3,3,0,0,0,0,0
254,254,0,63,0,3,3,0,0,0,0,0
255,255,0,63,0,3,3,0,0,0,0,0
256,0,0,63,0,3,3,0,0,0,0,0
257,1,0,63,0,3,3,0,0,0,0,0
258,2,0,63,0,3,3,0,0,0,0,0
259,3,0,63,0,3,3,0,0,0,0,0
260,4,0,63,0,3,3,0,0,0,0,0
261,5,0,63,0,3,3,0,0,0,0,0
262,6,0,63,0,3,3,0,0,0,0,0
263,7,0,63,0,3,3,0,0,0,0,0
264,8,0,63,0,3,3,0,0,0,0,0
265,9,0,63,0,3,3,0,0,0,0,0
266,10,0,63,0,3,3,0,0,0,0,0
267,11,0,63,0,3,3,0,0,0,0,0
268,12,0,63,0,3,3,0,0,0,0,0
269,13,0,63,0,3,3,0,0,0,0,0
270,14,0,63,0,3,3,0,0,0,0,0
271,15,0,63,0,3,3,0,0,0,0,0
272,16,0,63,0,3,3,0,0,0,0,0
273,17,0,63,0,3,3,0,0,0,0,0
274,18,0,63,0,3,3,0,0,0,0,0
275,19,0,63,0,3,3,0,0,0,0,0
276,20,1,63,0,3,3,1,0,0,0,0
277,21,0,63,0,3,3,1,0,0,0,0
278,22,0,63,0,3,3,1,0,0,0,0
279,23,0,63,0,3,3,1,0,0,0,0
280,24,0,63,0,3,3,1,0,0,0,0
281,25,0,63,0,3,3,1,0,0,0,0
282,26,0,63,0,3,3,1,0,0,0,0
283,27,0,63,0,3,3,1,0,0,0,0
284,28,0,63,0,3,3,1,0,0,0,0
285,29,0,63,0,3,3,1,0,0,0,0
286,30,0,63,0,3,3,1,0,0,0,0
287,31,0,63,0,3,3,1,0,0,0,0
288,32,0,63,0,3,3,1,0,0,0,0
289,33,0,63,0,3,3,1,0,0,0,0
290,34,0,63,0,3,3,1,0,0,0,0
291,35,0,63,0,3,3,1,0,0,0,0
292,36,0,63,0,3,3,1,0,0,0,0
293,37,0,63,0,3,3,1,0,0,0,0
294,38,0,63,0,3,3,1,0,0,0,0
295,39,0,63,0,3,3,1,0,0,0,0
296,40,0,63,0,3,3,1,0,0,0,0
297,41,0,63,0,3,3,1,0,0,0,0
298,42,0,63,0,3,3,1,0,0,0,0
299,43,0,63,0,3,3,1,0,0,0,0
300,44,0,63,0,3,3,1,0,0,0,0
301,45,0,63,0,3,3,1,0,0,0,0
302,46,0,63,0,3,3,1,0,0,0,0
303,47,0,63,0,3,3,1,0,0,0,0
304,48,0,63,0,3,3,1,0,0,0,0
305,49,0,63,0,3,3,1,0,0,0,0
306,50,0,63,0,3,3,1,0,0,0,0
307,51,0,63,0,3,3,1,0,0,0,0
308,52,0,63,0,3,3,1,0,0,0,0
309,53,0,63,0,3,3,1,0,0,0,0
310,54,0,63,0,3,3,1,0,0,0,0
311,55,0,63,0,3,3,1,0,0,0,0
312,56,0,63,0,3,3,1,0,0,0,0
313,57,0,63,0,3,3,1,0,0,0,0
314,58,0,63,0,3,3,1,0,0,0,0
315,59,0,63,0,3,3,1,0,0,0,0
316,60,0,63,0,3,3,1,0,0,0,0
317,61,0,63,0,3,3,1,0,0,0,0
318,62,0,63,0,3,3,1,0,0,0,0
319,63,0,63,0,3,3,1,0,0,0,0
320,64,0,63,0,3,3,1,0,0,0,0
321,65,0,63,0,3,3,1,0,0,0,0
322,66,0,63,0,3,3,1,0,0,0,0
323,67,0,63,0,3,3,1,0,0,0,0
324,68,0,63,0,3,3,1,0,0,0,0
325,69,0,63,0,3,3,1,0,0,0,0
326,70,0,63,0,3,3,1,0,0,0,0
327,71,0,63,0,3,3,1,0,0,0,0
328,72,0,63,0,3,3,1,0,0,0,0
329,73,0,63,0,3,3,1,0,0,0,0
330,74,0,63,0,3,3,1,0,0,0,0
331,75,0,63,0,3,3,1,0,0,0,0
332,76,0,63,0,3,3,1,0,0,0,0
333,77,0,63,0,3,3,1,0,0,0,0
334,78,0,63,0,3,3,1,0,0,0,0
335,79,0,63,0,3,3,1,0,0,0,0
336,80,0,63,0,3,3,1,0,0,0,0
337,81,0,63,0,3,3,1,0,0,0,0
338,82,0,63,0,3,3,1,0,0,0,0
339,83,0,63,0,3,3,1,0,0,0,0
340,84,0,63,0,3,3,1,0,0,0,0
341,85,0,63,0,3,3,1,0,0,0,0
342,86,0,63,0,3,3,1,0,0,0,0
343,87,0,63,0,3,3,1,0,0,0,0
344,88,0,63,0,3,3,1,0,0,0,0
345,89,0,63,0,3,3,1,0,0,0,0
346,90,0,63,0,3,3,1,0,0,0,0
347,91,0,63,0,3,3,1,0,0,0,0
348,92,0,63,0,3,3,1,0,0,0,0
349,93,0,63,0,3,3,1,0,0,0,0
350,94,0,63,0,3,3,1,0,0,0,0
351,95,0,63,0,3,3,1,0,0,0,0
352,96,0,63,0,3,3,1,0,0,0,0
353,97,0,63,0,3,3,1,0,0,0,0
354,98,0,63,0,3,3,1,0,0,0,0
355,99,0,63,0,3,3,1,0,0,0,0
356,100,0,63,0,3,3,1,0,0,0,0
357,101,0,63,0,3,3,1,0,0,0,0
358,102,0,63,0,3,3,1,0,0,0,0
359,103,0,63,0,3,3,1,0,0,0,0
360,104,0,63,0,3,3,1,0,0,0,0
361,105,0,63,0,3,3,1,0,0,0,0
362,106,0,63,0,3,3,1,0,0,0,0
363,107,0,63,0,3,3,1,0,0,0,0
364,108,0,63,0,3,3,1,0,0,0,0
365,109,0,63,0,3,3,1,0,0,0,0
366,110,0,63,0,3,3,1,0,0,0,0
367,111,0,63,0,3,3,1,0,0,0,0
368,112,0,63,0,3,3,1,0,0,0,0
369,113,0,63,0,3,3,1,0,0,0,0
370,114,0,63,0,3,3,1,0,0,0,0
371,115,0,63,0,3,3,1,0,0,0,0
372,116,0,63,0,3,3,1,0,0,0,0
373,117,0,63,0,3,3,1,0,0,0,0
374,118,0,63,0,3,3,1,0,0,0,0
375,119,0,63,0,3,3,1,0,0,0,0
376,120,0,63,0,3,3,1,0,0,0,0
377,121,0,63,0,3,3,1,0,0,0,0
378,122,0,63,0,3,3,1,0,0,0,0
379,123,0,63,0,3,3,1,0,0,0,0
380,124,0,63,0,3,3,1,0,0,0,0
381,125,0,63,0,3,3,1,0,0,0,0
382,126,0,63,0,3,3,1,0,0,0,0
383,127,0,63,0,3,3,1,0,0,0,0
384,128,0,63,0,3,3,1,0,0,0,0
385,129,0,63,0,3,3,1,0,0,0,0
386,130,0,63,0,3,3,1,0,0,0,0
387,131,0,63,0,3,3,1,0,0,0,0
388,132,0,63,0,3,3,1,0,0,0,0
389,133,0,63,0,3,3,1,0,0,0,0
390,134,0,63,0,3,3,1,0,0,0,0
391,135,0,63,0,3,3,1,0,0,0,0
392,136,0,63,0,3,3,1,0,0,0,0
393,137,0,63,0,3,3,1,0,0,0,0
394,138,0,63,0,3,3,1,0,0,0,0
395,139,0,63,0,3,3,1,0,0,0,0
396,140,0,63,0,3,3,1,0,0,0,0
397,141,0,63,0,3,3,1,0,0,0,0
398,142,0,63,0,3,3,1,0,0,0,0
399,143,0,63,0,3,3,1,0,0,0,0
400,144,0,63,0,3,3,1,0,0,0,0
401,145,0,63,0,3,3,1,0,0,0,0
402,146,0,63,0,3,3,1,0,0,0,0
403,147,0,63,0,3,3,1,0,0,0,0
404,148,0,63,0,3,3,1,0,0,0,0
405,149,0,63,0,3,3,1,0,0,0,0
406,150,0,63,0,3,3,1,0,0,0,0
407,151,0,63,0,3,3,1,0,0,0,0
408,152,0,63,0,3,3,1,0,0,0,0
409,153,0,63,0,3,3,1,0,0,0,0
410,154,0,63,0,3,3,1,0,0,0,0
411,155,0,63,0,3,3,1,0,0,0,0
412,156,0,63,0,3,3,1,0,0,0,0
413,157,0,63,0,3,3,1,0,0,0,0
414,158,0,63,0,3,3,1,0,0,0,0
415,159,0,63,0,3,3,1,0,0,0,0
416,160,0,63,0,3,3,1,0,0,0,0
417,161,0,63,0,3,3,1,0,0,0,0
418,162,0,63,0,3,3,1,0,0,0,0
419,163,0,63,0,3,3,1,0,0,0,0
420,164,0,63,0,3,3,1,0,0,0,0
421,165,0,63,0,3,3,1,0,0,0,0
422,166,0,63,0,3,3,1,0,0,0,0
423,167,0,63,0,3,3,1,0,0,0,0
424,168,0,63,0,3,3,1,0,0,0,0
425,169,0,63,0,3,3,1,0,0,0,0
426,170,0,63,0,3,3,1,0,0,0,0
427,171,0,63,0,3,3,0,0,0,0,0
428,172,0,63,0,3,3,0,0,0,0,0
429,173,0,63,0,3,3,0,0,0,0,0
430,174,0,63,0,3,3,0,0,0,0,0
431,175,0,63,0,3,3,0,0,0,0,0
432,176,0,63,0,3,3,0,0,0,0,0
433,177,0,63,0,3,3,0,0,0,0,0
434,178,0,63,0,3,3,0,0,0,0,0
435,179,0,63,0,3,3,0,0,0,0,0
436,180,0,63,0,3,3,0,0,0,0,0
437,181,0,63,0,3,3,0,0,0,0,0
438,182,0,63,0,3,3,0,0,0,0,0
439,183,0,63,0,3,3,0,0,0,0,0
440,184,0,63,0,3,3,0,0,0,0,0
441,185,0,63,0,3,3,0,0,0,0,0
442,186,0,63,0,3,3,0,0,0,0,0
443,187,0,63,0,3,3,0,0,0,0,0
444,188,0,63,0,3,3,0,0,0,0,0
445,189,0,63,0,3,3,0,0,0,0,0
446,190,0,63,0,3,3,0,0,0,0,0
447,191,0,63,0,3,3,0,0,0,0,0
448,192,0,63,0,3,3,0,0,0,0,0
449,193,0,63,0,3,3,0,0,0,0,0
450,194,0,63,0,3,3,0,0,0,0,0
451,195,0,63,0,3,3,0,0,0,0,0
452,196,0,63,0,3,3,0,0,0,0,0
453,197,0,63,0,3,3,0,0,0,0,0
454,198,0,63,0,3,3,0,0,0,0,0
455,199,0,63,0,3,3,0,0,0,0,0
456,200,0,63,0,3,3,0,0,0,0,0
457,201,0,63,0,3,3,0,0,0,0,0
458,202,0,63,0,3,3,0,0,0,0,0
459,203,0,63,0,3,3,0,0,0,0,0
460,204,0,63,0,3,3,0,0,0,0,0
461,205,0,63,0,3,3,0,0,0,0,0
462,206,0,63,0,3,3,0,0,0,0,0
463,207,0,63,0,3,3,0,0,0,0,0
464,208,0,63,0,3,3,0,0,0,0,0
465,209,0,63,0,3,3,0,0,0,0,0
466,210,0,63,0,3,3,0,0,0,0,0
467,211,0,63,0,3,3,0,0,0,0,0
468,212,0,63,0,3,3,0,0,0,0,0
469,213,0,63,0,3,3,0,0,0,0,0
470,214,0,63,0,3,3,0,0,0,0,0
471,215,0,63,0,3,3,0,0,0,0,0
472,216,0,63,0,3,3,0,0,0,0,0
473,217,0,63,0,3,3,0,0,0,0,0
474,218,0,63,0,3,3,0,0,0,0,0
475,219,0,63,0,3,3,0,0,0,0,0
476,220,0,63,0,3,3,0,0,0,0,0
477,221,0,63,0,3,3,0,0,0,0,0
478,222,0,63,0,3,3,0,0,0,0,0
479,223,0,63,0,3,3,0,0,0,0,0
480,224,0,63,0,3,3,0,0,0,0,0
481,225,0,63,0,3,3,0,0,0,0,0
482,226,0,63,0,3,3,0,0,0,0,0
483,227,0,63,0,3,3,0,0,0,0,0
484,228,0,63,0,3,3,0,0,0,0,0
485,229,0,63,0,3,3,0,0,0,0,0
486,230,0,63,0,3,3,0,0,0,0,0
487,231,0,63,0,3,3,0,0,0,0,0
488,232,0,63,0,3,3,0,0,0,0,0
489,233,0,63,0,3,3,0,0,0,0,0
490,234,0,63,0,3,3,0,0,0,0,0
491,235,0,63,0,3,3,0,0,0,0,0
492,236,0,63,0,3,3,0,0,0,0,0
493,237,0,63,0,3,3,0,0,0,0,0
494,238,0,63,0,3,3,0,0,0,0,0
495,239,0,63,0,3,3,0,0,0,0,0
496,240,0,63,0,3,3,0,0,0,0,0
497,241,0,63,0,3,3,0,0,0,0,0
498,242,0,63,0,3,3,0,0,0,0,0
499,243,0,63,0,3,3,0,0,0,0,0
500,244,0,63,0,3,3,0,0,0,0,0
501,245,0,63,0,3,3,0,0,0,0,0
502,246,0,63,0,3,3,0,0,0,0,0
503,247,0,63,0,3,3,0,0,0,0,0
504,248,0,63,0,3,3,0,0,0,0,0
505,249,0,63,0,3,3,0,0,0,0,0
506,250,0,63,0,3,3,0,0,0,0,0
507,251,0,63,0,3,3,0,0,0,0,0
508,252,0,63,0,3,3,0,0,0,0,0
509,253,0,63,0,3,3,0,0,0,0,0
510,254,0,63,0,3,3,0,0,0,0,0
511,255,0,63,0,3,3,0,0,0,0,0
512,0,0,63,0,3,3,0,0,0,0,0
513,1,0,63,0,3,3,0,0,0,0,0
514,2,0,63,0,3,3,0,0,0,0,0
515,3,0,63,0,3,3,0,0,0,0,0
516,4,0,63,0,3,3,0,0,0,0,0
517,5,0,63,0,3,3,0,0,0,0,0
518,6,0,63,0,3,3,0,0,0,0,0
519,7,0,63,0,3,3,0,0,0,0,0
520,8,0,63,0,3,3,0,0,0,0,0
521,9,0,63,0,3,3,0,0,0,0,0
522,10,0,63,0,3,3,0,0,0,0,0
523,11,0,63,0,3,3,0,0,0,0,0
524,12,0,63,0,3,3,0,0,0,0,0
525,13,0,63,0,3,3,0,0,0,0,0
526,14,0,63,0,3,3,0,0,0,0,0
527,15,0,63,0,3,3,0,0,0,0,0
528,16,0,63,0,3,3,0,0,0,0,0
529,17,0,63,0,3,3,0,0,0,0,0
530,18,0,63,0,3,3,0,0,0,0,0
531,19,0,63,0,3,3,0,0,0,0,0
532,20,1,63,0,3,3,1,0,0,0,0
533,21,0,63,0,3,3,1,0,0,0,0
534,22,0,63,0,3,3,1,0,0,0,0
535,23,0,63,0,3,3,1,0,0,0,0
536,24,0,63,0,3,3,1,0,0,0,0
537,25,0,63,0,3,3,1,0,0,0,0
538,26,0,63,0,3,3,1,0,0,0,0
539,27,0,63,0,3,3,1,0,0,0,0
540,28,0,63,0,3,3,1,0,0,0,0
541,29,0,63,0,3,3,1,0,0,0,0
542,30,0,63,0,3,3,1,0,0,0,0
543,31,0,63,0,3,3,1,0,0,0,0
544,32,0,63,0,3,3,1,0,0,0,0
545,33,0,63,0,3,3,1,0,0,0,0
546,34,0,63,0,3,3,1,0,0,0,0
547,35,0,63,0,3,3,1,0,0,0,0
548,36,0,63,0,3,3,1,0,0,0,0
549,37,0,63,0,3,3,1,0,0,0,0
550,38,0,63,0,3,3,1,0,0,0,0
551,39,0,63,0,3,3,1,0,0,0,0
552,40,0,63,0,3,3,1,0,0,0,0
553,41,0,63,0,3,3,1,0,0,0,0
554,42,0,63,0,3,3,1,0,0,0,0
555,43,0,63,0,3,3,1,0,0,0,0
556,44,0,63,0,3,3,1,0,0,0,0
557,45,0,63,0,3,3,1,0,0,0,0
558,46,0,63,0,3,3,1,0,0,0,0
559,47,0,63,0,3,3,1,0,0,0,0
560,48,0,63,0,3,3,1,0,0,0,0
561,49,0,63,0,3,3,1,0,0,0,0
562,50,0,63,0,3,3,1,0,0,0,0
563,51,0,63,0,3,3,1,0,0,0,0
564,52,0,63,0,3,3,1,0,0,0,0
565,53,0,63,0,3,3,1,0,0,0,0
566,54,0,63,0,3,3,1,0,0,0,0
567,55,0,63,0,3,3,1,0,0,0,0
568,56,0,63,0,3,3,1,0,0,0,0
569,57,0,63,0,3,3,1,0,0,0,0
570,58,0,63,0,3,3,1,0,0,0,0
571,59,0,63,0,3,3,1,0,0,0,0
572,60,0,63,0,3,3,1,0,0,0,0
573,61,0,63,0,3,3,1,0,0,0,0
574,62,0,63,0,3,3,1,0,0,0,0
575,63,0,63,0,3,3,1,0,0,0,0
576,64,0,63,0,3,3,1,0,0,0,0
577,65,0,63,0,3,3,1,0,0,0,0
578,66,0,63,0,3,3,1,0,0,0,0
579,67,0,63,0,3,3,1,0,0,0,0
580,68,0,63,0,3,3,1,0,0,0,0
581,69,0,63,0,3,3,1,0,0,0,0
582,70,0,63,0,3,3,1,0,0,0,0
583,71,0,63,0,3,3,1,0,0,0,0
584,72,0,63,0,3,3,1,0,0,0,0
585,73,0,63,0,3,3,1,0,0,0,0
586,74,0,63,0,3,3,1,0,0,0,0
587,75,0,63,0,3,3,1,0,0,0,0
588,76,0,63,0,3,3,1,0,0,0,0
589,77,0,63,0,3,3,1,0,0,0,0
590,78,0,63,0,3,3,1,0,0,0,0
591,79,0,63,0,3,3,1,0,0,0,0
592,80,0,63,0,3,3,1,0,0,0,0
593,81,0,63,0,3,3,1,0,0,0,0
594,82,0,63,0,3,3,1,0,0,0,0
595,83,0,63,0,3,3,1,0,0,0,0
596,84,0,63,0,3,3,1,0,0,0,0
597,85,0,63,0,3,3,1,0,0,0,0
598,86,0,63,0,3,3,1,0,0,0,0
599,87,0,63,0,3,3,1,0,0,0,0
600,88,0,63,0,3,3,1,0,0,0,0
601,89,0,63,0,3,3,1,0,0,0,0
602,90,0,63,0,3,3,1,0,0,0,0
603,91,0,63,0,3,3,1,0,0,0,0
604,92,0,63,0,3,3,1,0,0,0,0
605,93,0,63,0,3,3,1,0,0,0,0
606,94,0,63,0,3,3,1,0,0,0,0
607,95,0,63,0,3,3,1,0,0,0,0
608,96,0,63,0,3,3,1,0,0,0,0
609,97,0,63,0,3,3,1,0,0,0,0
610,98,0,63,0,3,3,1,0,0,0,0
611,99,0,63,0,3,3,1,0,0,0,0
612,100,0,63,0,3,3,1,0,0,0,0
613,101,0,63,0,3,3,1,0,0,0,0
614,102,0,63,0,3,3,1,0,0,0,0
615,103,0,63,0,3,3,1,0,0,0,0
616,104,0,63,0,3,3,1,0,0,0,0
617,105,0,63,0,3,3,1,0,0,0,0
618,106,0,63,0,3,3,1,0,0,0,0
619,107,0,63,0,3,3,1,0,0,0,0
620,108,0,63,0,3,3,1,0,0,0,0
621,109,0,63,0,3,3,1,0,0,0,0
622,110,0,63,0,3,3,1,0,0,0,0
623,111,0,63,0,3,3,1,0,0,0,0
624,112,0,63,0,3,3,1,0,0,0,0
625,113,0,63,0,3,3,1,0,0,0,0
626,114,0,63,0,3,3,1,0,0,0,0
627,115,0,63,0,3,3,1,0,0,0,0
628,116,0,63,0,3,3,1,0,0,0,0
629,117,0,63,0,3,3,1,0,0,0,0
630,118,0,63,0,3,3,1,0,0,0,0
631,119,0,63,0,3,3,1,0,0,0,0
632,120,0,63,0,3,3,1,0,0,0,0
633,121,0,63,0,3,3,1,0,0,0,0
634,122,0,63,0,3,3,1,0,0,0,0
635,123,0,63,0,3,3,1,0,0,0,0
636,124,0,63,0,3,3,1,0,0,0,0
637,125,0,63,0,3,3,1,0,0,0,0
638,126,0,63,0,3,3,1,0,0,0,0
639,127,0,63,0,3,3,1,0,0,0,0
640,128,0,63,0,3,3,1,0,0,0,0
641,129,0,63,0,3,3,1,0,0,0,0
642,130,0,63,0,3,3,1,0,0,0,0
643,131,0,63,0,3,3,1,0,0,0,0
644,132,0,63,0,3,3,1,0,0,0,0
645,133,0,63,0,3,3,1,0,0,0,0
646,134,0,63,0,3,3,1,0,0,0,0
647,135,0,63,0,3,3,1,0,0,0,0
648,136,0,63,0,3,3,1,0,0,0,0
649,137,0,63,0,3,3,1,0,0,0,0
650,138,0,63,0,3,3,1,0,0,0,0
651,139,0,63,0,3,3,1,0,0,0,0
652,140,0,63,0,3,3,1,0,0,0,0
653,141,0,63,0,3,3,1,0,0,0,0
654,142,0,63,0,3,3,1,0,0,0,0
655,143,0,63,0,3,3,1,0,0,0,0
656,144,0,63,0,3,3,1,0,0,0,0
657,145,0,63,0,3,3,1,0,0,0,0
658,146,0,63,0,3,3,1,0,0,0,0
659,147,0,63,0,3,3,1,0,0,0,0
660,148,0,63,0,3,3,1,0,0,0,0
661,149,0,63,0,3,3,1,0,0,0,0
662,150,0,63,0,3,3,1,0,0,0,0
663,151,0,63,0,3,3,1,0,0,0,0
664,152,0,63,0,3,3,1,0,0,0,0
665,153,0,63,0,3,3,1,0,0,0,0
666,154,0,63,0,3,3,1,0,0,0,0
667,155,0,63,0,3,3,1,0,0,0,0
668,156,0,63,0,3,3,1,0,0,0,0
669,157,0,63,0,3,3,1,0,0,0,0
670,158,0,63,0,3,3,1,0,0,0,0
671,159,0,63,0,3,3,1,0,0,0,0
672,160,0,63,0,3,3,1,0,0,0,0
673,161,0,63,0,3,3,0,0,0,0,0
674,162,0,63,0,3,3,0,0,0,0,0
675,163,0,63,0,3,3,0,0,0,0,0
676,164,0,63,0,3,3,0,0,0,0,0
677,165,0,63,0,3,3,0,0,0,0,0
678,166,0,63,0,3,3,0,0,0,0,0
679,167,0,63,0,3,3,0,0,0,0,0
680,168,0,63,0,3,3,0,0,0,0,0
681,169,0,63,0,3,3,0,0,0,0,0
